time	V(signal)	V(vout)
0.000000000000000e+00	-1.074840e-04	1.694567e-01
1.953124890551744e-13	-1.074840e-04	1.694567e-01
3.906249781103488e-13	-1.074840e-04	1.694567e-01
7.812499562206976e-13	-1.074840e-04	1.694567e-01
1.562499912441395e-12	-1.074840e-04	1.694567e-01
3.124999824882790e-12	-1.074840e-04	1.694567e-01
6.249999649765581e-12	-1.074840e-04	1.694567e-01
1.249999929953116e-11	-1.074840e-04	1.694567e-01
2.499999859906232e-11	-1.074840e-04	1.694567e-01
4.999999719812465e-11	-1.074840e-04	1.694567e-01
9.999999439624929e-11	-1.074840e-04	1.694567e-01
1.999999887924986e-10	-1.074840e-04	1.694567e-01
3.999999775849972e-10	-1.074840e-04	1.694567e-01
7.999999551699943e-10	-1.074840e-04	1.694567e-01
1.599999910339989e-09	-1.074840e-04	1.694566e-01
3.199999820679977e-09	-1.074840e-04	1.694563e-01
6.399999641359955e-09	-1.074840e-04	1.694556e-01
1.279999928271991e-08	-1.074840e-04	1.694542e-01
2.559999856543982e-08	-1.074840e-04	1.694523e-01
4.513124856543982e-08	-1.074840e-04	1.694500e-01
4.757265481543982e-08	-1.074840e-04	1.694497e-01
5.245546731543982e-08	-1.074840e-04	1.694487e-01
6.222109231543981e-08	-1.074840e-04	1.694467e-01
8.175234231543981e-08	-1.074840e-04	1.694438e-01
1.000000000000000e-07	-1.074840e-04	1.694415e-01
1.000010000000000e-07	-1.071970e-04	1.694415e-01
1.000170000000000e-07	-9.801376e-05	1.694415e-01
1.000175000000000e-07	-9.772678e-05	1.694415e-01
1.000185000000000e-07	-9.715283e-05	1.694415e-01
1.000205000000000e-07	-9.600492e-05	1.694415e-01
1.000210000000000e-07	-9.571794e-05	1.694415e-01
1.000245000000000e-07	-9.374463e-05	1.694415e-01
1.000314999999999e-07	-9.001108e-05	1.694415e-01
1.000454999999998e-07	-8.339624e-05	1.694415e-01
1.000734999999997e-07	-7.357565e-05	1.694415e-01
1.001200000000000e-07	-6.730876e-05	1.694415e-01
1.001499728171934e-07	-6.730945e-05	1.694415e-01
1.001862481170124e-07	-6.731028e-05	1.694415e-01
1.002274756136705e-07	-6.731122e-05	1.694415e-01
1.003099306069867e-07	-6.731311e-05	1.694415e-01
1.004748405936191e-07	-6.731688e-05	1.694415e-01
1.008046605668838e-07	-6.732442e-05	1.694414e-01
1.014643005134133e-07	-6.733950e-05	1.694414e-01
1.027835804064723e-07	-6.736966e-05	1.694415e-01
1.054221401925903e-07	-6.742993e-05	1.694418e-01
1.106992597648263e-07	-6.755030e-05	1.694429e-01
1.212534989092982e-07	-6.779033e-05	1.694452e-01
1.236949051592983e-07	-6.784569e-05	1.694459e-01
1.285777176592982e-07	-6.795632e-05	1.694474e-01
1.383433426592982e-07	-6.817697e-05	1.694512e-01
1.578745926592982e-07	-6.861582e-05	1.694637e-01
1.603159989092982e-07	-6.867042e-05	1.694657e-01
1.651988114092982e-07	-6.877951e-05	1.694696e-01
1.664195145342982e-07	-6.880674e-05	1.694705e-01
1.688609207842982e-07	-6.886119e-05	1.694724e-01
1.737437332842983e-07	-6.896992e-05	1.694760e-01
1.749644364092983e-07	-6.899705e-05	1.694769e-01
1.774058426592983e-07	-6.905131e-05	1.694786e-01
1.822886551592983e-07	-6.915967e-05	1.694821e-01
1.920542801592983e-07	-6.937576e-05	1.694895e-01
2.115855301592983e-07	-6.980537e-05	1.695084e-01
2.311167801592983e-07	-7.023154e-05	1.695307e-01
2.506480301592982e-07	-7.065424e-05	1.695545e-01
2.701792801592982e-07	-7.107343e-05	1.695799e-01
2.897105301592982e-07	-7.148908e-05	1.696066e-01
3.092417801592982e-07	-7.190117e-05	1.696342e-01
3.287730301592982e-07	-7.230968e-05	1.696625e-01
3.483042801592982e-07	-7.271458e-05	1.696913e-01
3.678355301592982e-07	-7.311586e-05	1.697204e-01
3.873667801592982e-07	-7.351350e-05	1.697495e-01
4.068980301592982e-07	-7.390749e-05	1.697787e-01
4.264292801592982e-07	-7.429782e-05	1.698076e-01
4.459605301592982e-07	-7.468449e-05	1.698363e-01
4.654917801592982e-07	-7.506750e-05	1.698646e-01
4.850230301592982e-07	-7.544683e-05	1.698923e-01
5.045542801592983e-07	-7.582249e-05	1.699196e-01
5.240855301592983e-07	-7.619448e-05	1.699461e-01
5.436167801592984e-07	-7.656281e-05	1.699720e-01
5.631480301592984e-07	-7.692748e-05	1.699971e-01
5.826792801592985e-07	-7.728850e-05	1.700214e-01
6.022105301592985e-07	-7.764586e-05	1.700448e-01
6.217417801592986e-07	-7.799960e-05	1.700674e-01
6.412730301592986e-07	-7.834971e-05	1.700892e-01
6.608042801592987e-07	-7.869621e-05	1.701100e-01
6.803355301592987e-07	-7.903911e-05	1.701299e-01
6.998667801592988e-07	-7.937843e-05	1.701489e-01
7.193980301592988e-07	-7.971418e-05	1.701670e-01
7.389292801592989e-07	-8.004637e-05	1.701842e-01
7.584605301592989e-07	-8.037504e-05	1.702004e-01
7.779917801592990e-07	-8.070019e-05	1.702157e-01
7.975230301592990e-07	-8.102184e-05	1.702301e-01
8.170542801592991e-07	-8.134003e-05	1.702436e-01
8.365855301592991e-07	-8.165475e-05	1.702562e-01
8.561167801592992e-07	-8.196604e-05	1.702680e-01
8.756480301592992e-07	-8.227392e-05	1.702788e-01
8.951792801592993e-07	-8.257842e-05	1.702888e-01
9.147105301592993e-07	-8.287955e-05	1.702980e-01
9.342417801592994e-07	-8.317734e-05	1.703064e-01
9.537730301592995e-07	-8.347182e-05	1.703140e-01
9.733042801592995e-07	-8.376301e-05	1.703208e-01
9.928355301592996e-07	-8.405092e-05	1.703269e-01
1.000000000000001e-06	-8.415572e-05	1.703292e-01
1.004420830414060e-06	-6.451343e-05	1.703309e-01
1.007693317362359e-06	-2.461466e-05	1.703324e-01
1.010000000000000e-06	1.644244e-05	1.703337e-01
1.013849786587042e-06	9.378116e-05	1.703363e-01
1.014351721969907e-06	1.038483e-04	1.703367e-01
1.015355592735637e-06	1.239758e-04	1.703376e-01
1.015606560427070e-06	1.290052e-04	1.703379e-01
1.016108495809934e-06	1.390622e-04	1.703384e-01
1.017112366575664e-06	1.591662e-04	1.703397e-01
1.017363334267097e-06	1.641897e-04	1.703401e-01
1.017865269649962e-06	1.742349e-04	1.703409e-01
1.018869140415692e-06	1.943154e-04	1.703428e-01
1.019120108107124e-06	1.993330e-04	1.703433e-01
1.019622043489989e-06	2.093665e-04	1.703445e-01
1.020625914255719e-06	2.294235e-04	1.703471e-01
1.020876881947151e-06	2.344352e-04	1.703478e-01
1.021378817330016e-06	2.444570e-04	1.703493e-01
1.022382688095746e-06	2.644905e-04	1.703526e-01
1.022633655787179e-06	2.694964e-04	1.703535e-01
1.023135591170044e-06	2.795064e-04	1.703553e-01
1.024139461935773e-06	2.995165e-04	1.703593e-01
1.024390429627206e-06	3.045166e-04	1.703603e-01
1.024892365010071e-06	3.145149e-04	1.703625e-01
1.025896235775801e-06	3.345016e-04	1.703671e-01
1.026147203467233e-06	3.394958e-04	1.703684e-01
1.026649138850098e-06	3.494824e-04	1.703709e-01
1.027653009615828e-06	3.694458e-04	1.703762e-01
1.027903977307260e-06	3.744341e-04	1.703776e-01
1.028405912690125e-06	3.844091e-04	1.703804e-01
1.029409783455855e-06	4.043491e-04	1.703863e-01
1.029660751147288e-06	4.093316e-04	1.703879e-01
1.030162686530153e-06	4.192949e-04	1.703911e-01
1.031166557295882e-06	4.392116e-04	1.703977e-01
1.031417524987315e-06	4.441883e-04	1.703994e-01
1.031919460370180e-06	4.541400e-04	1.704029e-01
1.032923331135910e-06	4.740334e-04	1.704102e-01
1.033174298827342e-06	4.790042e-04	1.704121e-01
1.033676234210207e-06	4.889443e-04	1.704160e-01
1.034680104975937e-06	5.088144e-04	1.704240e-01
1.034931072667370e-06	5.137795e-04	1.704261e-01
1.035433008050235e-06	5.237079e-04	1.704303e-01
1.036436878815964e-06	5.435548e-04	1.704390e-01
1.036687846507397e-06	5.485141e-04	1.704413e-01
1.037189781890262e-06	5.584309e-04	1.704458e-01
1.038193652655992e-06	5.782546e-04	1.704553e-01
1.038444620347424e-06	5.832081e-04	1.704577e-01
1.038946555730289e-06	5.931134e-04	1.704626e-01
1.039950426496019e-06	6.129139e-04	1.704728e-01
1.040201394187451e-06	6.178616e-04	1.704755e-01
1.040703329570316e-06	6.277552e-04	1.704808e-01
1.041707200336046e-06	6.475327e-04	1.704917e-01
1.041958168027479e-06	6.524746e-04	1.704945e-01
1.042460103410344e-06	6.623567e-04	1.705002e-01
1.043463974176073e-06	6.821110e-04	1.705120e-01
1.043714941867506e-06	6.870471e-04	1.705150e-01
1.044216877250371e-06	6.969177e-04	1.705211e-01
1.045220748016101e-06	7.166489e-04	1.705336e-01
1.045471715707533e-06	7.215793e-04	1.705368e-01
1.045973651090398e-06	7.314383e-04	1.705433e-01
1.046977521856128e-06	7.511465e-04	1.705566e-01
1.047228489547560e-06	7.560711e-04	1.705600e-01
1.047730424930425e-06	7.659186e-04	1.705669e-01
1.048734295696155e-06	7.856038e-04	1.705811e-01
1.048985263387588e-06	7.905227e-04	1.705847e-01
1.049487198770453e-06	8.003587e-04	1.705921e-01
1.050491069536182e-06	8.200209e-04	1.706071e-01
1.050742037227615e-06	8.249339e-04	1.706109e-01
1.051243972610480e-06	8.347585e-04	1.706187e-01
1.052247843376210e-06	8.543977e-04	1.706345e-01
1.052498811067642e-06	8.593051e-04	1.706386e-01
1.053000746450507e-06	8.691181e-04	1.706468e-01
1.054004617216237e-06	8.887344e-04	1.706635e-01
1.054255584907670e-06	8.936360e-04	1.706678e-01
1.054757520290535e-06	9.034377e-04	1.706764e-01
1.055761391056264e-06	9.230311e-04	1.706941e-01
1.056012358747697e-06	9.279269e-04	1.706986e-01
1.056514294130562e-06	9.377171e-04	1.707077e-01
1.057518164896292e-06	9.572876e-04	1.707262e-01
1.057769132587724e-06	9.621778e-04	1.707309e-01
1.058271067970589e-06	9.719565e-04	1.707405e-01
1.059274938736319e-06	9.915042e-04	1.707600e-01
1.059525906427751e-06	9.963887e-04	1.707649e-01
1.060027841810616e-06	1.006156e-03	1.707749e-01
1.061031712576346e-06	1.025681e-03	1.707954e-01
1.061282680267779e-06	1.030560e-03	1.708006e-01
1.061784615650644e-06	1.040315e-03	1.708110e-01
1.062788486416373e-06	1.059818e-03	1.708324e-01
1.063039454107806e-06	1.064691e-03	1.708379e-01
1.063541389490671e-06	1.074435e-03	1.708488e-01
1.064545260256401e-06	1.093914e-03	1.708712e-01
1.064796227947833e-06	1.098782e-03	1.708769e-01
1.065298163330698e-06	1.108515e-03	1.708883e-01
1.066302034096428e-06	1.127972e-03	1.709116e-01
1.066553001787860e-06	1.132833e-03	1.709176e-01
1.067054937170725e-06	1.142555e-03	1.709295e-01
1.068058807936455e-06	1.161989e-03	1.709538e-01
1.068309775627888e-06	1.166845e-03	1.709600e-01
1.068811711010753e-06	1.176555e-03	1.709725e-01
1.069815581776483e-06	1.195967e-03	1.709978e-01
1.070066549467915e-06	1.200817e-03	1.710043e-01
1.070568484850780e-06	1.210516e-03	1.710172e-01
1.071572355616510e-06	1.229905e-03	1.710436e-01
1.071823323307942e-06	1.234749e-03	1.710503e-01
1.072325258690807e-06	1.244437e-03	1.710638e-01
1.073329129456537e-06	1.263803e-03	1.710912e-01
1.073580097147970e-06	1.268642e-03	1.710982e-01
1.074082032530835e-06	1.278319e-03	1.711122e-01
1.075085903296564e-06	1.297662e-03	1.711406e-01
1.075336870987997e-06	1.302495e-03	1.711479e-01
1.075838806370862e-06	1.312161e-03	1.711624e-01
1.076842677136592e-06	1.331481e-03	1.711919e-01
1.077093644828024e-06	1.336309e-03	1.711994e-01
1.077595580210889e-06	1.345963e-03	1.712145e-01
1.078599450976619e-06	1.365261e-03	1.712451e-01
1.078850418668051e-06	1.370083e-03	1.712529e-01
1.079352354050916e-06	1.379726e-03	1.712685e-01
1.080356224816646e-06	1.399002e-03	1.713002e-01
1.080607192508079e-06	1.403818e-03	1.713083e-01
1.081109127890944e-06	1.413450e-03	1.713244e-01
1.082112998656673e-06	1.432703e-03	1.713573e-01
1.082363966348106e-06	1.437514e-03	1.713656e-01
1.082865901730971e-06	1.447134e-03	1.713823e-01
1.083869772496701e-06	1.466365e-03	1.714162e-01
1.084120740188133e-06	1.471170e-03	1.714249e-01
1.084622675570998e-06	1.480779e-03	1.714421e-01
1.085626546336728e-06	1.499988e-03	1.714772e-01
1.085877514028160e-06	1.504787e-03	1.714861e-01
1.086379449411025e-06	1.514385e-03	1.715040e-01
1.087383320176755e-06	1.533571e-03	1.715402e-01
1.087634287868188e-06	1.538365e-03	1.715494e-01
1.088136223251053e-06	1.547952e-03	1.715678e-01
1.089140094016783e-06	1.567115e-03	1.716052e-01
1.089391061708215e-06	1.571904e-03	1.716146e-01
1.089892997091080e-06	1.581479e-03	1.716336e-01
1.090896867856810e-06	1.600620e-03	1.716722e-01
1.091147835548242e-06	1.605403e-03	1.716820e-01
1.091649770931107e-06	1.614968e-03	1.717016e-01
1.092653641696837e-06	1.634087e-03	1.717413e-01
1.092904609388270e-06	1.638864e-03	1.717513e-01
1.093406544771135e-06	1.648417e-03	1.717715e-01
1.094410415536864e-06	1.667514e-03	1.718124e-01
1.094661383228297e-06	1.672285e-03	1.718228e-01
1.095163318611162e-06	1.681827e-03	1.718436e-01
1.096167189376892e-06	1.700902e-03	1.718857e-01
1.096418157068324e-06	1.705668e-03	1.718964e-01
1.096920092451189e-06	1.715199e-03	1.719178e-01
1.097923963216919e-06	1.734251e-03	1.719611e-01
1.098174930908351e-06	1.739012e-03	1.719721e-01
1.098676866291216e-06	1.748531e-03	1.719941e-01
1.099680737056946e-06	1.767561e-03	1.720386e-01
1.099931704748379e-06	1.772317e-03	1.720499e-01
1.100433640131244e-06	1.781825e-03	1.720725e-01
1.101437510896973e-06	1.800833e-03	1.721183e-01
1.101688478588406e-06	1.805583e-03	1.721299e-01
1.102190413971271e-06	1.815080e-03	1.721531e-01
1.103194284737001e-06	1.834066e-03	1.722002e-01
1.103445252428433e-06	1.838810e-03	1.722121e-01
1.103947187811298e-06	1.848296e-03	1.722360e-01
1.104951058577028e-06	1.867260e-03	1.722842e-01
1.105202026268460e-06	1.871998e-03	1.722964e-01
1.105703961651325e-06	1.881474e-03	1.723210e-01
1.106707832417055e-06	1.900415e-03	1.723705e-01
1.106958800108488e-06	1.905148e-03	1.723830e-01
1.107460735491353e-06	1.914613e-03	1.724082e-01
1.108464606257083e-06	1.933532e-03	1.724590e-01
1.108715573948515e-06	1.938259e-03	1.724719e-01
1.109217509331380e-06	1.947713e-03	1.724977e-01
1.110221380097110e-06	1.966610e-03	1.725498e-01
1.110472347788542e-06	1.971332e-03	1.725629e-01
1.110974283171407e-06	1.980775e-03	1.725894e-01
1.111978153937137e-06	1.999650e-03	1.726428e-01
1.112229121628570e-06	2.004366e-03	1.726563e-01
1.112731057011435e-06	2.013798e-03	1.726834e-01
1.113734927777164e-06	2.032651e-03	1.727381e-01
1.113985895468597e-06	2.037362e-03	1.727519e-01
1.114487830851462e-06	2.046783e-03	1.727796e-01
1.115491701617192e-06	2.065614e-03	1.728357e-01
1.115742669308624e-06	2.070319e-03	1.728498e-01
1.116244604691489e-06	2.079729e-03	1.728782e-01
1.117248475457219e-06	2.098538e-03	1.729356e-01
1.117499443148651e-06	2.103238e-03	1.729501e-01
1.118001378531516e-06	2.112637e-03	1.729791e-01
1.119005249297246e-06	2.131424e-03	1.730378e-01
1.119256216988679e-06	2.136119e-03	1.730527e-01
1.119758152371544e-06	2.145506e-03	1.730824e-01
1.120762023137273e-06	2.164272e-03	1.731424e-01
1.121012990828706e-06	2.168961e-03	1.731576e-01
1.121514926211571e-06	2.178338e-03	1.731880e-01
1.122518796977301e-06	2.197082e-03	1.732494e-01
1.122769764668733e-06	2.201765e-03	1.732649e-01
1.123271700051598e-06	2.211131e-03	1.732959e-01
1.124275570817328e-06	2.229853e-03	1.733587e-01
1.124526538508761e-06	2.234531e-03	1.733745e-01
1.125028473891626e-06	2.243886e-03	1.734063e-01
1.126032344657355e-06	2.262586e-03	1.734704e-01
1.126283312348788e-06	2.267259e-03	1.734866e-01
1.126785247731653e-06	2.276603e-03	1.735190e-01
1.127789118497383e-06	2.295281e-03	1.735845e-01
1.128040086188815e-06	2.299949e-03	1.736011e-01
1.128542021571680e-06	2.309282e-03	1.736342e-01
1.129545892337410e-06	2.327938e-03	1.737011e-01
1.129796860028842e-06	2.332600e-03	1.737179e-01
1.130298795411707e-06	2.341922e-03	1.737518e-01
1.131302666177437e-06	2.360557e-03	1.738200e-01
1.131553633868870e-06	2.365214e-03	1.738373e-01
1.132055569251735e-06	2.374525e-03	1.738718e-01
1.133059440017464e-06	2.393138e-03	1.739415e-01
1.133310407708897e-06	2.397789e-03	1.739590e-01
1.133812343091762e-06	2.407090e-03	1.739943e-01
1.134816213857492e-06	2.425682e-03	1.740654e-01
1.135067181548924e-06	2.430327e-03	1.740833e-01
1.135569116931789e-06	2.439617e-03	1.741192e-01
1.136572987697519e-06	2.458187e-03	1.741917e-01
1.136823955388951e-06	2.462827e-03	1.742100e-01
1.137325890771816e-06	2.472106e-03	1.742466e-01
1.138329761537546e-06	2.490654e-03	1.743205e-01
1.138580729228979e-06	2.495289e-03	1.743392e-01
1.139082664611844e-06	2.504557e-03	1.743765e-01
1.140086535377573e-06	2.523084e-03	1.744519e-01
1.140337503069006e-06	2.527713e-03	1.744709e-01
1.140839438451871e-06	2.536971e-03	1.745090e-01
1.141843309217601e-06	2.555476e-03	1.745857e-01
1.142094276909033e-06	2.560100e-03	1.746051e-01
1.142596212291898e-06	2.569346e-03	1.746439e-01
1.143600083057628e-06	2.587830e-03	1.747221e-01
1.143851050749061e-06	2.592449e-03	1.747418e-01
1.144352986131926e-06	2.601685e-03	1.747814e-01
1.145356856897655e-06	2.620147e-03	1.748610e-01
1.145607824589088e-06	2.624760e-03	1.748811e-01
1.146109759971953e-06	2.633985e-03	1.749214e-01
1.147113630737683e-06	2.652426e-03	1.750025e-01
1.147364598429115e-06	2.657034e-03	1.750229e-01
1.147866533811980e-06	2.666248e-03	1.750639e-01
1.148870404577710e-06	2.684667e-03	1.751465e-01
1.149121372269142e-06	2.689270e-03	1.751673e-01
1.149623307652007e-06	2.698474e-03	1.752090e-01
1.150627178417737e-06	2.716871e-03	1.752931e-01
1.150878146109170e-06	2.721469e-03	1.753143e-01
1.151380081492035e-06	2.730662e-03	1.753567e-01
1.152383952257764e-06	2.749038e-03	1.754423e-01
1.152634919949197e-06	2.753630e-03	1.754638e-01
1.153136855332062e-06	2.762812e-03	1.755070e-01
1.154140726097792e-06	2.781167e-03	1.755941e-01
1.154391693789224e-06	2.785754e-03	1.756160e-01
1.154893629172089e-06	2.794925e-03	1.756599e-01
1.155897499937819e-06	2.813259e-03	1.757484e-01
1.156148467629251e-06	2.817840e-03	1.757707e-01
1.156650403012116e-06	2.827001e-03	1.758154e-01
1.157654273777846e-06	2.845314e-03	1.759054e-01
1.157905241469279e-06	2.849890e-03	1.759281e-01
1.158407176852144e-06	2.859040e-03	1.759735e-01
1.159411047617873e-06	2.877331e-03	1.760650e-01
1.159662015309306e-06	2.881902e-03	1.760881e-01
1.160163950692171e-06	2.891041e-03	1.761342e-01
1.161167821457901e-06	2.909311e-03	1.762273e-01
1.161418789149333e-06	2.913876e-03	1.762507e-01
1.161920724532198e-06	2.923005e-03	1.762976e-01
1.162924595297928e-06	2.941254e-03	1.763922e-01
1.163175562989361e-06	2.945814e-03	1.764160e-01
1.163677498372226e-06	2.954932e-03	1.764636e-01
1.164681369137955e-06	2.973160e-03	1.765597e-01
1.164932336829388e-06	2.977714e-03	1.765839e-01
1.165434272212253e-06	2.986822e-03	1.766323e-01
1.166438142977983e-06	3.005028e-03	1.767299e-01
1.166689110669415e-06	3.009578e-03	1.767544e-01
1.167191046052280e-06	3.018675e-03	1.768037e-01
1.168194916818010e-06	3.036860e-03	1.769028e-01
1.168445884509442e-06	3.041404e-03	1.769277e-01
1.168947819892307e-06	3.050491e-03	1.769777e-01
1.169951690658037e-06	3.068655e-03	1.770783e-01
1.170202658349470e-06	3.073194e-03	1.771036e-01
1.170704593732335e-06	3.082270e-03	1.771544e-01
1.171708464498064e-06	3.100413e-03	1.772565e-01
1.171959432189497e-06	3.104946e-03	1.772823e-01
1.172461367572362e-06	3.114012e-03	1.773338e-01
1.173465238338092e-06	3.132134e-03	1.774375e-01
1.173716206029524e-06	3.136662e-03	1.774636e-01
1.174218141412389e-06	3.145717e-03	1.775159e-01
1.175222012178119e-06	3.163817e-03	1.776211e-01
1.175472979869551e-06	3.168340e-03	1.776476e-01
1.175974915252416e-06	3.177385e-03	1.777007e-01
1.176978786018146e-06	3.195465e-03	1.778075e-01
1.177229753709579e-06	3.199982e-03	1.778343e-01
1.177731689092444e-06	3.209016e-03	1.778882e-01
1.178735559858174e-06	3.227075e-03	1.779965e-01
1.178986527549606e-06	3.231588e-03	1.780238e-01
1.179488462932471e-06	3.240611e-03	1.780784e-01
1.180492333698201e-06	3.258649e-03	1.781884e-01
1.180743301389633e-06	3.263156e-03	1.782160e-01
1.181245236772498e-06	3.272169e-03	1.782714e-01
1.182249107538228e-06	3.290186e-03	1.783829e-01
1.182500075229661e-06	3.294688e-03	1.784109e-01
1.183002010612526e-06	3.303690e-03	1.784671e-01
1.184005881378255e-06	3.321686e-03	1.785802e-01
1.184256849069688e-06	3.326183e-03	1.786086e-01
1.184758784452553e-06	3.335175e-03	1.786656e-01
1.185762655218283e-06	3.353150e-03	1.787802e-01
1.186013622909715e-06	3.357642e-03	1.788090e-01
1.186515558292580e-06	3.366623e-03	1.788668e-01
1.187519429058310e-06	3.384577e-03	1.789830e-01
1.187770396749742e-06	3.389064e-03	1.790122e-01
1.188272332132607e-06	3.398035e-03	1.790708e-01
1.189276202898337e-06	3.415968e-03	1.791885e-01
1.189527170589770e-06	3.420449e-03	1.792181e-01
1.190029105972635e-06	3.429410e-03	1.792775e-01
1.191032976738364e-06	3.447323e-03	1.793969e-01
1.191283944429797e-06	3.451799e-03	1.794269e-01
1.191785879812662e-06	3.460749e-03	1.794870e-01
1.192789750578392e-06	3.478640e-03	1.796080e-01
1.193040718269824e-06	3.483111e-03	1.796384e-01
1.193542653652689e-06	3.492051e-03	1.796993e-01
1.194546524418419e-06	3.509922e-03	1.798218e-01
