time	V(vout)	V(vout2)
0.000000000000000e+00	1.259257e-01	1.642916e+00
1.464843654361281e-12	1.259257e-01	1.642916e+00
2.929687308722562e-12	1.259257e-01	1.642916e+00
5.859374617445123e-12	1.259257e-01	1.642916e+00
1.171874923489025e-11	1.259257e-01	1.642916e+00
2.343749846978049e-11	1.259257e-01	1.642916e+00
4.687499693956099e-11	1.259257e-01	1.642916e+00
9.374999387912197e-11	1.259257e-01	1.642916e+00
1.054687431140122e-10	1.259257e-01	1.642916e+00
1.289062415837927e-10	1.259257e-01	1.642916e+00
1.347656162012378e-10	1.259257e-01	1.642916e+00
1.464843654361281e-10	1.259257e-01	1.642916e+00
1.699218639059086e-10	1.259257e-01	1.642916e+00
2.167968608454696e-10	1.259257e-01	1.642915e+00
2.285156100803598e-10	1.259257e-01	1.642915e+00
2.519531085501403e-10	1.259257e-01	1.642914e+00
2.988281054897013e-10	1.259257e-01	1.642912e+00
3.105468547245915e-10	1.259257e-01	1.642912e+00
3.339843531943720e-10	1.259257e-01	1.642911e+00
3.808593501339330e-10	1.259257e-01	1.642908e+00
3.925780993688233e-10	1.259257e-01	1.642907e+00
4.160155978386038e-10	1.259257e-01	1.642906e+00
4.628905947781647e-10	1.259257e-01	1.642902e+00
4.746093440130550e-10	1.259257e-01	1.642901e+00
4.980468424828355e-10	1.259257e-01	1.642899e+00
5.449218394223965e-10	1.259257e-01	1.642895e+00
5.566405886572867e-10	1.259257e-01	1.642894e+00
5.800780871270672e-10	1.259257e-01	1.642892e+00
6.269530840666282e-10	1.259258e-01	1.642887e+00
6.386718333015184e-10	1.259258e-01	1.642885e+00
6.621093317712989e-10	1.259258e-01	1.642882e+00
7.089843287108599e-10	1.259258e-01	1.642877e+00
7.207030779457502e-10	1.259258e-01	1.642875e+00
7.441405764155307e-10	1.259258e-01	1.642872e+00
7.910155733550917e-10	1.259258e-01	1.642866e+00
8.027343225899819e-10	1.259258e-01	1.642864e+00
8.261718210597624e-10	1.259258e-01	1.642860e+00
8.730468179993234e-10	1.259258e-01	1.642853e+00
8.847655672342136e-10	1.259258e-01	1.642851e+00
9.082030657039941e-10	1.259258e-01	1.642848e+00
9.550780626435551e-10	1.259258e-01	1.642840e+00
9.667968118784454e-10	1.259258e-01	1.642838e+00
9.902343103482258e-10	1.259258e-01	1.642834e+00
1.037109307287787e-09	1.259258e-01	1.642826e+00
1.048828056522677e-09	1.259258e-01	1.642824e+00
1.072265554992458e-09	1.259258e-01	1.642820e+00
1.119140551932019e-09	1.259259e-01	1.642811e+00
1.130859301166909e-09	1.259259e-01	1.642809e+00
1.154296799636689e-09	1.259259e-01	1.642805e+00
1.201171796576250e-09	1.259259e-01	1.642796e+00
1.212890545811141e-09	1.259259e-01	1.642793e+00
1.236328044280921e-09	1.259259e-01	1.642789e+00
1.283203041220482e-09	1.259259e-01	1.642779e+00
1.294921790455372e-09	1.259259e-01	1.642777e+00
1.318359288925153e-09	1.259259e-01	1.642772e+00
1.365234285864714e-09	1.259259e-01	1.642762e+00
1.376953035099604e-09	1.259259e-01	1.642760e+00
1.400390533569384e-09	1.259259e-01	1.642755e+00
1.447265530508945e-09	1.259259e-01	1.642745e+00
1.458984279743836e-09	1.259259e-01	1.642743e+00
1.482421778213616e-09	1.259259e-01	1.642737e+00
1.529296775153177e-09	1.259260e-01	1.642727e+00
1.541015524388067e-09	1.259260e-01	1.642725e+00
1.564453022857848e-09	1.259260e-01	1.642719e+00
1.611328019797409e-09	1.259260e-01	1.642709e+00
1.623046769032299e-09	1.259260e-01	1.642706e+00
1.646484267502080e-09	1.259260e-01	1.642701e+00
1.693359264441641e-09	1.259260e-01	1.642690e+00
1.705078013676531e-09	1.259260e-01	1.642687e+00
1.728515512146311e-09	1.259260e-01	1.642682e+00
1.775390509085872e-09	1.259260e-01	1.642671e+00
1.787109258320763e-09	1.259260e-01	1.642668e+00
1.810546756790543e-09	1.259260e-01	1.642662e+00
1.857421753730104e-09	1.259261e-01	1.642651e+00
1.869140502964994e-09	1.259261e-01	1.642648e+00
1.892578001434775e-09	1.259261e-01	1.642642e+00
1.939452998374336e-09	1.259261e-01	1.642631e+00
1.951171747609226e-09	1.259261e-01	1.642628e+00
1.974609246079007e-09	1.259261e-01	1.642622e+00
2.021484243018568e-09	1.259261e-01	1.642611e+00
2.033202992253458e-09	1.259261e-01	1.642608e+00
2.056640490723238e-09	1.259261e-01	1.642602e+00
2.103515487662799e-09	1.259262e-01	1.642590e+00
2.115234236897690e-09	1.259262e-01	1.642587e+00
2.138671735367470e-09	1.259262e-01	1.642582e+00
2.185546732307031e-09	1.259262e-01	1.642570e+00
2.197265481541921e-09	1.259262e-01	1.642567e+00
2.220702980011702e-09	1.259262e-01	1.642561e+00
2.267577976951263e-09	1.259262e-01	1.642549e+00
2.279296726186153e-09	1.259262e-01	1.642546e+00
2.302734224655933e-09	1.259262e-01	1.642540e+00
2.349609221595494e-09	1.259262e-01	1.642528e+00
2.361327970830385e-09	1.259262e-01	1.642525e+00
2.384765469300165e-09	1.259263e-01	1.642519e+00
2.431640466239726e-09	1.259263e-01	1.642506e+00
2.443359215474616e-09	1.259263e-01	1.642503e+00
2.466796713944397e-09	1.259263e-01	1.642497e+00
2.513671710883958e-09	1.259263e-01	1.642485e+00
2.525390460118848e-09	1.259263e-01	1.642482e+00
2.548827958588629e-09	1.259263e-01	1.642475e+00
2.595702955528190e-09	1.259263e-01	1.642463e+00
2.607421704763080e-09	1.259263e-01	1.642460e+00
2.630859203232860e-09	1.259263e-01	1.642454e+00
2.677734200172421e-09	1.259264e-01	1.642441e+00
2.689452949407312e-09	1.259264e-01	1.642438e+00
2.712890447877092e-09	1.259264e-01	1.642432e+00
2.759765444816653e-09	1.259264e-01	1.642420e+00
2.771484194051543e-09	1.259264e-01	1.642416e+00
2.794921692521324e-09	1.259264e-01	1.642410e+00
2.841796689460885e-09	1.259264e-01	1.642398e+00
2.853515438695775e-09	1.259264e-01	1.642394e+00
2.876952937165556e-09	1.259264e-01	1.642388e+00
2.923827934105117e-09	1.259265e-01	1.642376e+00
2.935546683340007e-09	1.259265e-01	1.642372e+00
2.958984181809787e-09	1.259265e-01	1.642366e+00
2.964843556427232e-09	1.259265e-01	1.642365e+00
2.976562305662123e-09	1.259265e-01	1.642361e+00
2.999999804131903e-09	1.259265e-01	1.642355e+00
3.046874801071464e-09	1.259265e-01	1.642342e+00
3.058593550306354e-09	1.259265e-01	1.642339e+00
3.082031048776135e-09	1.259265e-01	1.642333e+00
3.128906045715696e-09	1.259266e-01	1.642320e+00
3.140624794950586e-09	1.259266e-01	1.642317e+00
3.164062293420367e-09	1.259266e-01	1.642310e+00
3.210937290359928e-09	1.259266e-01	1.642297e+00
3.222656039594818e-09	1.259266e-01	1.642294e+00
3.246093538064598e-09	1.259266e-01	1.642287e+00
3.292968535004159e-09	1.259266e-01	1.642274e+00
3.304687284239050e-09	1.259266e-01	1.642271e+00
3.328124782708830e-09	1.259267e-01	1.642265e+00
3.374999779648391e-09	1.259267e-01	1.642252e+00
3.386718528883281e-09	1.259267e-01	1.642249e+00
3.410156027353062e-09	1.259267e-01	1.642242e+00
3.457031024292623e-09	1.259267e-01	1.642229e+00
3.468749773527513e-09	1.259267e-01	1.642226e+00
3.492187271997294e-09	1.259267e-01	1.642219e+00
3.539062268936854e-09	1.259267e-01	1.642207e+00
3.550781018171745e-09	1.259268e-01	1.642203e+00
3.574218516641525e-09	1.259268e-01	1.642197e+00
3.621093513581086e-09	1.259268e-01	1.642184e+00
3.632812262815976e-09	1.259268e-01	1.642181e+00
3.656249761285757e-09	1.259268e-01	1.642174e+00
3.703124758225318e-09	1.259268e-01	1.642161e+00
3.714843507460208e-09	1.259268e-01	1.642158e+00
3.738281005929989e-09	1.259269e-01	1.642152e+00
3.785156002869550e-09	1.259269e-01	1.642139e+00
3.796874752104440e-09	1.259269e-01	1.642136e+00
3.820312250574220e-09	1.259269e-01	1.642130e+00
3.867187247513781e-09	1.259269e-01	1.642117e+00
3.878905996748672e-09	1.259269e-01	1.642114e+00
3.902343495218452e-09	1.259269e-01	1.642107e+00
3.949218492158013e-09	1.259270e-01	1.642095e+00
3.960937241392903e-09	1.259270e-01	1.642091e+00
3.984374739862684e-09	1.259270e-01	1.642085e+00
4.031249736802245e-09	1.259270e-01	1.642072e+00
4.042968486037135e-09	1.259270e-01	1.642069e+00
4.066405984506916e-09	1.259270e-01	1.642063e+00
4.113280981446477e-09	1.259270e-01	1.642050e+00
4.124999730681367e-09	1.259271e-01	1.642047e+00
4.148437229151147e-09	1.259271e-01	1.642041e+00
4.195312226090708e-09	1.259271e-01	1.642028e+00
4.207030975325599e-09	1.259271e-01	1.642025e+00
4.230468473795379e-09	1.259271e-01	1.642019e+00
4.277343470734940e-09	1.259271e-01	1.642007e+00
4.289062219969830e-09	1.259272e-01	1.642004e+00
4.312499718439611e-09	1.259272e-01	1.641997e+00
4.359374715379172e-09	1.259272e-01	1.641985e+00
4.371093464614062e-09	1.259272e-01	1.641982e+00
4.394530963083843e-09	1.259272e-01	1.641976e+00
4.400390337701288e-09	1.259272e-01	1.641974e+00
4.412109086936178e-09	1.259272e-01	1.641971e+00
4.435546585405958e-09	1.259272e-01	1.641965e+00
4.482421582345519e-09	1.259273e-01	1.641952e+00
4.494140331580410e-09	1.259273e-01	1.641949e+00
4.517577830050190e-09	1.259273e-01	1.641943e+00
4.564452826989751e-09	1.259273e-01	1.641931e+00
4.576171576224641e-09	1.259273e-01	1.641928e+00
4.599609074694422e-09	1.259273e-01	1.641921e+00
4.646484071633983e-09	1.259273e-01	1.641909e+00
4.658202820868873e-09	1.259274e-01	1.641906e+00
4.681640319338654e-09	1.259274e-01	1.641900e+00
4.728515316278215e-09	1.259274e-01	1.641887e+00
4.740234065513105e-09	1.259274e-01	1.641884e+00
4.763671563982885e-09	1.259274e-01	1.641878e+00
4.810546560922446e-09	1.259274e-01	1.641866e+00
4.822265310157337e-09	1.259274e-01	1.641863e+00
4.845702808627117e-09	1.259275e-01	1.641857e+00
4.892577805566678e-09	1.259275e-01	1.641845e+00
4.904296554801568e-09	1.259275e-01	1.641842e+00
4.927734053271349e-09	1.259275e-01	1.641835e+00
4.974609050210910e-09	1.259276e-01	1.641823e+00
4.986327799445800e-09	1.259276e-01	1.641820e+00
5.009765297915580e-09	1.259276e-01	1.641814e+00
5.056640294855141e-09	1.259276e-01	1.641802e+00
5.068359044090032e-09	1.259276e-01	1.641799e+00
5.091796542559812e-09	1.259276e-01	1.641793e+00
5.138671539499373e-09	1.259276e-01	1.641782e+00
5.150390288734263e-09	1.259277e-01	1.641779e+00
5.173827787204044e-09	1.259277e-01	1.641773e+00
5.220702784143605e-09	1.259277e-01	1.641761e+00
5.232421533378495e-09	1.259277e-01	1.641758e+00
5.255859031848276e-09	1.259277e-01	1.641752e+00
5.302734028787837e-09	1.259278e-01	1.641741e+00
5.314452778022727e-09	1.259278e-01	1.641738e+00
5.337890276492507e-09	1.259278e-01	1.641732e+00
5.384765273432068e-09	1.259278e-01	1.641720e+00
5.396484022666959e-09	1.259278e-01	1.641718e+00
5.419921521136739e-09	1.259278e-01	1.641712e+00
5.466796518076300e-09	1.259279e-01	1.641700e+00
5.478515267311190e-09	1.259279e-01	1.641698e+00
5.501952765780971e-09	1.259279e-01	1.641692e+00
5.548827762720532e-09	1.259279e-01	1.641680e+00
5.560546511955422e-09	1.259279e-01	1.641678e+00
5.583984010425203e-09	1.259279e-01	1.641672e+00
5.630859007364764e-09	1.259280e-01	1.641661e+00
5.642577756599654e-09	1.259280e-01	1.641658e+00
5.666015255069434e-09	1.259280e-01	1.641652e+00
5.712890252008995e-09	1.259280e-01	1.641641e+00
5.724609001243885e-09	1.259280e-01	1.641639e+00
5.748046499713666e-09	1.259280e-01	1.641633e+00
5.794921496653227e-09	1.259281e-01	1.641622e+00
5.806640245888117e-09	1.259281e-01	1.641619e+00
5.830077744357898e-09	1.259281e-01	1.641614e+00
5.876952741297459e-09	1.259281e-01	1.641603e+00
5.888671490532349e-09	1.259281e-01	1.641600e+00
5.912108989002129e-09	1.259282e-01	1.641595e+00
5.958983985941690e-09	1.259282e-01	1.641584e+00
5.970702735176581e-09	1.259282e-01	1.641581e+00
5.994140233646361e-09	1.259282e-01	1.641576e+00
6.041015230585922e-09	1.259283e-01	1.641565e+00
6.052733979820812e-09	1.259283e-01	1.641563e+00
6.076171478290593e-09	1.259283e-01	1.641557e+00
6.123046475230154e-09	1.259283e-01	1.641547e+00
6.134765224465044e-09	1.259283e-01	1.641544e+00
6.158202722934825e-09	1.259283e-01	1.641539e+00
6.205077719874386e-09	1.259284e-01	1.641528e+00
6.216796469109276e-09	1.259284e-01	1.641526e+00
6.240233967579056e-09	1.259284e-01	1.641521e+00
6.287108964518617e-09	1.259284e-01	1.641510e+00
6.298827713753508e-09	1.259284e-01	1.641508e+00
6.322265212223288e-09	1.259284e-01	1.641503e+00
6.369140209162849e-09	1.259285e-01	1.641492e+00
6.380858958397739e-09	1.259285e-01	1.641490e+00
6.404296456867520e-09	1.259285e-01	1.641485e+00
6.451171453807081e-09	1.259285e-01	1.641475e+00
6.462890203041971e-09	1.259286e-01	1.641472e+00
6.486327701511752e-09	1.259286e-01	1.641467e+00
6.533202698451313e-09	1.259286e-01	1.641457e+00
6.544921447686203e-09	1.259286e-01	1.641455e+00
6.568358946155983e-09	1.259286e-01	1.641450e+00
6.615233943095544e-09	1.259287e-01	1.641440e+00
6.626952692330434e-09	1.259287e-01	1.641437e+00
6.650390190800215e-09	1.259287e-01	1.641432e+00
6.697265187739776e-09	1.259287e-01	1.641423e+00
6.708983936974666e-09	1.259287e-01	1.641420e+00
6.732421435444447e-09	1.259287e-01	1.641415e+00
6.779296432384008e-09	1.259288e-01	1.641406e+00
6.791015181618898e-09	1.259288e-01	1.641403e+00
6.814452680088678e-09	1.259288e-01	1.641398e+00
6.861327677028239e-09	1.259288e-01	1.641389e+00
6.873046426263130e-09	1.259288e-01	1.641386e+00
6.896483924732910e-09	1.259289e-01	1.641382e+00
6.943358921672471e-09	1.259289e-01	1.641372e+00
6.955077670907361e-09	1.259289e-01	1.641370e+00
6.978515169377142e-09	1.259289e-01	1.641365e+00
7.025390166316703e-09	1.259290e-01	1.641356e+00
7.037108915551593e-09	1.259290e-01	1.641353e+00
7.060546414021374e-09	1.259290e-01	1.641349e+00
7.107421410960935e-09	1.259290e-01	1.641340e+00
7.119140160195825e-09	1.259290e-01	1.641337e+00
7.142577658665605e-09	1.259290e-01	1.641333e+00
7.189452655605166e-09	1.259291e-01	1.641324e+00
7.201171404840057e-09	1.259291e-01	1.641321e+00
7.224608903309837e-09	1.259291e-01	1.641317e+00
7.271483900249398e-09	1.259291e-01	1.641308e+00
7.283202649484288e-09	1.259291e-01	1.641305e+00
7.306640147954069e-09	1.259292e-01	1.641301e+00
7.353515144893630e-09	1.259292e-01	1.641292e+00
7.365233894128520e-09	1.259292e-01	1.641290e+00
7.388671392598301e-09	1.259292e-01	1.641286e+00
7.435546389537862e-09	1.259293e-01	1.641277e+00
7.447265138772752e-09	1.259293e-01	1.641274e+00
7.470702637242532e-09	1.259293e-01	1.641270e+00
7.517577634182093e-09	1.259293e-01	1.641261e+00
7.529296383416983e-09	1.259293e-01	1.641259e+00
7.552733881886764e-09	1.259294e-01	1.641255e+00
7.599608878826325e-09	1.259294e-01	1.641246e+00
7.611327628061215e-09	1.259294e-01	1.641244e+00
7.634765126530996e-09	1.259294e-01	1.641240e+00
7.681640123470557e-09	1.259294e-01	1.641232e+00
7.693358872705447e-09	1.259295e-01	1.641230e+00
7.716796371175227e-09	1.259295e-01	1.641225e+00
7.763671368114788e-09	1.259295e-01	1.641217e+00
7.775390117349679e-09	1.259295e-01	1.641215e+00
7.798827615819459e-09	1.259295e-01	1.641211e+00
7.845702612759020e-09	1.259296e-01	1.641202e+00
7.857421361993910e-09	1.259296e-01	1.641200e+00
7.880858860463691e-09	1.259296e-01	1.641196e+00
7.927733857403252e-09	1.259296e-01	1.641188e+00
7.939452606638142e-09	1.259297e-01	1.641186e+00
7.962890105107923e-09	1.259297e-01	1.641182e+00
8.009765102047484e-09	1.259297e-01	1.641174e+00
8.021483851282374e-09	1.259297e-01	1.641172e+00
8.044921349752154e-09	1.259297e-01	1.641168e+00
8.091796346691715e-09	1.259298e-01	1.641160e+00
8.103515095926606e-09	1.259298e-01	1.641158e+00
8.126952594396386e-09	1.259298e-01	1.641154e+00
8.173827591335947e-09	1.259298e-01	1.641147e+00
8.185546340570837e-09	1.259298e-01	1.641145e+00
8.208983839040618e-09	1.259298e-01	1.641141e+00
8.255858835980179e-09	1.259299e-01	1.641133e+00
8.267577585215069e-09	1.259299e-01	1.641131e+00
8.291015083684850e-09	1.259299e-01	1.641127e+00
8.337890080624411e-09	1.259300e-01	1.641120e+00
8.349608829859301e-09	1.259300e-01	1.641118e+00
8.373046328329081e-09	1.259300e-01	1.641114e+00
8.419921325268642e-09	1.259300e-01	1.641107e+00
8.431640074503532e-09	1.259300e-01	1.641105e+00
8.455077572973313e-09	1.259300e-01	1.641101e+00
8.501952569912874e-09	1.259301e-01	1.641094e+00
8.513671319147764e-09	1.259301e-01	1.641092e+00
8.537108817617545e-09	1.259301e-01	1.641088e+00
8.583983814557106e-09	1.259301e-01	1.641081e+00
8.595702563791996e-09	1.259302e-01	1.641079e+00
8.619140062261776e-09	1.259302e-01	1.641075e+00
8.666015059201337e-09	1.259302e-01	1.641068e+00
8.677733808436228e-09	1.259302e-01	1.641067e+00
8.701171306906008e-09	1.259302e-01	1.641063e+00
8.748046303845569e-09	1.259303e-01	1.641056e+00
8.759765053080459e-09	1.259303e-01	1.641054e+00
8.783202551550240e-09	1.259303e-01	1.641051e+00
8.830077548489801e-09	1.259303e-01	1.641044e+00
8.841796297724691e-09	1.259304e-01	1.641042e+00
8.865233796194472e-09	1.259304e-01	1.641039e+00
8.912108793134033e-09	1.259304e-01	1.641032e+00
8.923827542368923e-09	1.259304e-01	1.641030e+00
8.947265040838703e-09	1.259304e-01	1.641027e+00
8.994140037778264e-09	1.259305e-01	1.641020e+00
9.005858787013155e-09	1.259305e-01	1.641018e+00
9.029296285482935e-09	1.259305e-01	1.641015e+00
9.076171282422496e-09	1.259305e-01	1.641008e+00
9.087890031657386e-09	1.259305e-01	1.641007e+00
9.111327530127167e-09	1.259306e-01	1.641003e+00
9.158202527066728e-09	1.259306e-01	1.640997e+00
9.169921276301618e-09	1.259306e-01	1.640995e+00
9.193358774771399e-09	1.259306e-01	1.640992e+00
9.240233771710959e-09	1.259307e-01	1.640985e+00
9.251952520945850e-09	1.259307e-01	1.640984e+00
9.275390019415630e-09	1.259307e-01	1.640981e+00
9.322265016355191e-09	1.259307e-01	1.640974e+00
9.333983765590081e-09	1.259307e-01	1.640973e+00
9.357421264059862e-09	1.259308e-01	1.640970e+00
9.404296260999423e-09	1.259308e-01	1.640963e+00
9.416015010234313e-09	1.259308e-01	1.640962e+00
9.439452508704094e-09	1.259308e-01	1.640959e+00
9.486327505643655e-09	1.259309e-01	1.640953e+00
9.498046254878545e-09	1.259309e-01	1.640951e+00
9.521483753348325e-09	1.259309e-01	1.640948e+00
9.568358750287886e-09	1.259309e-01	1.640942e+00
9.580077499522777e-09	1.259309e-01	1.640941e+00
9.603514997992557e-09	1.259310e-01	1.640938e+00
9.650389994932118e-09	1.259310e-01	1.640932e+00
9.662108744167008e-09	1.259310e-01	1.640930e+00
9.685546242636789e-09	1.259310e-01	1.640927e+00
9.732421239576350e-09	1.259311e-01	1.640921e+00
9.744139988811240e-09	1.259311e-01	1.640920e+00
9.767577487281021e-09	1.259311e-01	1.640917e+00
9.814452484220582e-09	1.259311e-01	1.640911e+00
9.826171233455472e-09	1.259311e-01	1.640910e+00
9.849608731925252e-09	1.259312e-01	1.640907e+00
9.896483728864813e-09	1.259312e-01	1.640901e+00
9.908202478099704e-09	1.259312e-01	1.640900e+00
9.931639976569484e-09	1.259312e-01	1.640897e+00
9.937499351186929e-09	1.259312e-01	1.640896e+00
9.949218100421819e-09	1.259312e-01	1.640895e+00
9.972655598891600e-09	1.259312e-01	1.640892e+00
1.001953059583116e-08	1.259313e-01	1.640887e+00
1.003124934506605e-08	1.259313e-01	1.640885e+00
1.005468684353583e-08	1.259313e-01	1.640882e+00
1.010156184047539e-08	1.259314e-01	1.640877e+00
1.011328058971028e-08	1.259314e-01	1.640875e+00
1.013671808818006e-08	1.259314e-01	1.640873e+00
1.018359308511962e-08	1.259314e-01	1.640867e+00
1.019531183435451e-08	1.259314e-01	1.640866e+00
1.021874933282430e-08	1.259315e-01	1.640863e+00
1.026562432976386e-08	1.259315e-01	1.640858e+00
1.027734307899875e-08	1.259315e-01	1.640856e+00
1.030078057746853e-08	1.259315e-01	1.640853e+00
1.034765557440809e-08	1.259316e-01	1.640848e+00
1.035937432364298e-08	1.259316e-01	1.640847e+00
1.038281182211276e-08	1.259316e-01	1.640844e+00
1.042968681905232e-08	1.259316e-01	1.640839e+00
1.044140556828721e-08	1.259317e-01	1.640837e+00
1.046484306675699e-08	1.259317e-01	1.640835e+00
1.051171806369655e-08	1.259317e-01	1.640830e+00
1.052343681293144e-08	1.259317e-01	1.640828e+00
1.054687431140122e-08	1.259317e-01	1.640826e+00
1.059374930834078e-08	1.259318e-01	1.640821e+00
1.060546805757567e-08	1.259318e-01	1.640820e+00
1.062890555604545e-08	1.259318e-01	1.640817e+00
1.067578055298501e-08	1.259318e-01	1.640812e+00
1.068749930221990e-08	1.259319e-01	1.640811e+00
1.071093680068969e-08	1.259319e-01	1.640808e+00
1.075781179762925e-08	1.259319e-01	1.640804e+00
1.076953054686414e-08	1.259319e-01	1.640802e+00
1.079296804533392e-08	1.259319e-01	1.640800e+00
1.083984304227348e-08	1.259320e-01	1.640795e+00
1.085156179150837e-08	1.259320e-01	1.640794e+00
1.087499928997815e-08	1.259320e-01	1.640792e+00
1.092187428691771e-08	1.259321e-01	1.640787e+00
1.093359303615260e-08	1.259321e-01	1.640786e+00
1.095703053462238e-08	1.259321e-01	1.640784e+00
1.096288990923983e-08	1.259321e-01	1.640783e+00
1.097460865847472e-08	1.259321e-01	1.640782e+00
1.099804615694450e-08	1.259321e-01	1.640779e+00
1.104492115388406e-08	1.259322e-01	1.640775e+00
